T0300 18415:563 SEGGER J-Link V6.30h Log File (0000ms, 69103ms total)
T0300 18415:563 DLL Compiled: Mar 16 2018 18:02:51 (0000ms, 69103ms total)
T0300 18415:563 Logging started @ 2018-06-22 00:40 (0000ms, 69103ms total)
T0300 18415:563 JLINK_SetWarnOutHandler(...) (0000ms, 69103ms total)
T0300 18415:563 JLINK_OpenEx(...)
Firmware: J-Link ARM-OB STM32 compiled Aug 22 2012 19:52:04
Hardware: V7.00
S/N: 20090928
Feature(s): RDI,FlashDL,FlashBP,JFlash,GDBFull
TELNET listener socket opened on port 19021WEBSRV 
Starting webserver (0099ms, 69202ms total)
T0300 18415:563 WEBSRV Webserver running on local port 19080 (0100ms, 69203ms total)
T0300 18415:563   returns O.K. (0100ms, 69203ms total)
T0300 18415:663 JLINK_GetEmuCaps()  returns 0x88EA5833 (0000ms, 69203ms total)
T0300 18415:664 JLINK_TIF_GetAvailable(...) (0001ms, 69204ms total)
T0300 18415:665 JLINK_SetErrorOutHandler(...) (0000ms, 69204ms total)
T0300 18415:665 JLINK_ExecCommand("ProjectFile = "E:\chke\doc&pro\外包 移远M26 空气净化器\Air_cleaner\USER\JLinkSettings.ini"", ...).   returns 0x00 (0002ms, 69206ms total)
T0300 18415:669 JLINK_ExecCommand("Device = STM32F103RE", ...). Device "STM32F103RE" selected.  returns 0x00 (0002ms, 69208ms total)
T0300 18415:671 JLINK_ExecCommand("DisableConnectionTimeout", ...).   returns 0x01 (0000ms, 69208ms total)
T0300 18415:671 JLINK_GetHardwareVersion()  returns 0x11170 (0000ms, 69208ms total)
T0300 18415:671 JLINK_GetDLLVersion()  returns 63008 (0000ms, 69208ms total)
T0300 18415:671 JLINK_GetFirmwareString(...) (0000ms, 69208ms total)
T0300 18415:676 JLINK_GetDLLVersion()  returns 63008 (0000ms, 69208ms total)
T0300 18415:676 JLINK_GetCompileDateTime() (0000ms, 69208ms total)
T0300 18415:678 JLINK_GetFirmwareString(...) (0000ms, 69208ms total)
T0300 18415:681 JLINK_GetHardwareVersion()  returns 0x11170 (0000ms, 69208ms total)
T0300 18415:693 JLINK_TIF_Select(JLINKARM_TIF_SWD)  returns 0x00 (0003ms, 69211ms total)
T0300 18415:696 JLINK_SetSpeed(5000) (0001ms, 69212ms total)
T0300 18415:697 JLINK_GetId() >0x10B TIF>Found SW-DP with ID 0x1BA01477 >0x0D TIF> >0x28 TIF> >0x0D TIF> >0x28 TIF> >0x0D TIF> >0x28 TIF> >0x0D TIF> >0x28 TIF> >0x0D TIF> >0x21 TIF> >0x0D TIF> >0x28 TIF> >0x0D TIF> >0x28 TIF> >0x0D TIF> >0x28 TIF> >0x0D TIF> >0x21 TIF> >0x0D TIF> >0x21 TIF> >0x0D TIF> >0x28 TIF> >0x0D TIF> >0x21 TIF> >0x0D TIF> >0x21 TIF> >0x0D TIF> >0x28 TIF> >0x0D TIF> >0x28 TIF> >0x0D TIF> >0x28 TIF> >0x0D TIF> >0x21 TIF> >0x0D TIF> >0x21 TIF> >0x0D TIF> >0x28 TIF> >0x0D TIF>
 >0x21 TIF> >0x0D TIF> >0x21 TIF> >0x0D TIF> >0x28 TIF> >0x0D TIF> >0x21 TIF> >0x0D TIF> >0x21 TIF> >0x0D TIF> >0x28 TIF> >0x0D TIF> >0x21 TIF> >0x0D TIF> >0x21 TIF> >0x0D TIF> >0x28 TIF> >0x0D TIF> >0x21 TIF> >0x0D TIF> >0x21 TIF> >0x10B TIF>Found SW-DP with ID 0x1BA01477 >0x0D TIF> >0x28 TIF> >0x0D TIF> >0x28 TIF> >0x0D TIF> >0x28 TIF> >0x0D TIF> >0x28 TIF> >0x0D TIF> >0x21 TIF> >0x0D TIF> >0x28 TIF>Scanning AP map to find all available APs >0x0D TIF> >0x28 TIF> >0x0D TIF> >0x21 TIF> >0x0D TIF>
 >0x21 TIF> >0x0D TIF> >0x28 TIF> >0x0D TIF> >0x21 TIF> >0x0D TIF> >0x21 TIF>AP[1]: Stopped AP scan as end of AP map has been reachedAP[0]: AHB-AP (IDR: 0x14770011)Iterating through AP map to find AHB-AP to use >0x42 TIF> >0x28 TIF> >0x0D TIF> >0x28 TIF> >0x0D TIF> >0x21 TIF> >0x0D TIF> >0x21 TIF> >0x42 TIF> >0x28 TIF> >0x0D TIF> >0x28 TIF> >0x0D TIF> >0x28 TIF> >0x0D TIF> >0x21 TIF> >0x0D TIF> >0x21 TIF>AP[0]: Core foundAP[0]: AHB-AP ROM base: 0xE00FF000 >0x0D TIF> >0x28 TIF> >0x0D TIF> >0x28 TIF>
 >0x0D TIF> >0x28 TIF> >0x0D TIF> >0x21 TIF> >0x0D TIF> >0x21 TIF>CPUID register: 0x411FC231. Implementer code: 0x41 (ARM)Found Cortex-M3 r1p1, Little endian. -- CPU_ReadMem(4 bytes @ 0xE000EDF0) -- CPU_WriteMem(4 bytes @ 0xE000EDF0) -- CPU_ReadMem(4 bytes @ 0xE0002000)FPUnit: 6 code (BP) slots and 2 literal slots -- CPU_ReadMem(4 bytes @ 0xE000EDFC) -- CPU_WriteMem(4 bytes @ 0xE000EDFC) -- CPU_ReadMem(4 bytes @ 0xE0001000) -- CPU_WriteMem(4 bytes @ 0xE0001000) -- CPU_ReadMem(4 bytes @ 0xE000ED88)
 -- CPU_WriteMem(4 bytes @ 0xE000ED88) -- CPU_ReadMem(4 bytes @ 0xE000ED88) -- CPU_WriteMem(4 bytes @ 0xE000ED88)CoreSight components:ROMTbl[0] @ E00FF000 -- CPU_ReadMem(16 bytes @ 0xE00FF000) -- CPU_ReadMem(16 bytes @ 0xE000EFF0) -- CPU_ReadMem(16 bytes @ 0xE000EFE0)ROMTbl[0][0]: E000E000, CID: B105E00D, PID: 001BB000 SCS -- CPU_ReadMem(16 bytes @ 0xE0001FF0) -- CPU_ReadMem(16 bytes @ 0xE0001FE0)ROMTbl[0][1]: E0001000, CID: B105E00D, PID: 001BB002 DWT -- CPU_ReadMem(16 bytes @ 0xE0002FF0)
 -- CPU_ReadMem(16 bytes @ 0xE0002FE0)ROMTbl[0][2]: E0002000, CID: B105E00D, PID: 000BB003 FPB -- CPU_ReadMem(16 bytes @ 0xE0000FF0) -- CPU_ReadMem(16 bytes @ 0xE0000FE0)ROMTbl[0][3]: E0000000, CID: B105E00D, PID: 001BB001 ITM -- CPU_ReadMem(16 bytes @ 0xE00FF010) -- CPU_ReadMem(16 bytes @ 0xE0040FF0) -- CPU_ReadMem(16 bytes @ 0xE0040FE0)ROMTbl[0][4]: E0040000, CID: B105900D, PID: 001BB923 TPIU-Lite -- CPU_ReadMem(16 bytes @ 0xE0041FF0) -- CPU_ReadMem(16 bytes @ 0xE0041FE0)
ROMTbl[0][5]: E0041000, CID: B105900D, PID: 101BB924 ETM-M3 >0x0D TIF> >0x21 TIF>  returns 0x1BA01477 (0375ms, 69587ms total)
T0300 18416:072 JLINK_GetDLLVersion()  returns 63008 (0000ms, 69587ms total)
T0300 18416:072 JLINK_CORE_GetFound()  returns 0x30000FF (0000ms, 69587ms total)
T0300 18416:072 JLINK_GetDebugInfo(0x100 = JLINKARM_ROM_TABLE_ADDR_INDEX) -- Value=0xE00FF000  returns 0x00 (0000ms, 69587ms total)
T0300 18416:076 JLINK_GetDebugInfo(0x100 = JLINKARM_ROM_TABLE_ADDR_INDEX) -- Value=0xE00FF000  returns 0x00 (0000ms, 69587ms total)
T0300 18416:076 JLINK_GetDebugInfo(0x101 = JLINKARM_DEBUG_INFO_ETM_ADDR_INDEX) -- Value=0xE0041000  returns 0x00 (0000ms, 69587ms total)
T0300 18416:076 JLINK_ReadMemEx(0xE0041FD0, 0x0020 Bytes, ..., Flags = 0x02000004) -- CPU_ReadMem(32 bytes @ 0xE0041FD0) - Data: 04 00 00 00 00 00 00 00 00 00 00 00 00 00 00 00 ...  returns 0x20 (0002ms, 69589ms total)
T0300 18416:078 JLINK_GetDebugInfo(0x102 = JLINKARM_DEBUG_INFO_MTB_ADDR_INDEX) -- Value=0x00000000  returns 0x00 (0000ms, 69589ms total)
T0300 18416:078 JLINK_GetDebugInfo(0x103 = JLINKARM_DEBUG_INFO_TPIU_ADDR_INDEX) -- Value=0xE0040000  returns 0x00 (0000ms, 69589ms total)
T0300 18416:078 JLINK_GetDebugInfo(0x104 = JLINKARM_DEBUG_INFO_ITM_ADDR_INDEX) -- Value=0xE0000000  returns 0x00 (0000ms, 69589ms total)
T0300 18416:078 JLINK_GetDebugInfo(0x105 = JLINKARM_DEBUG_INFO_DWT_ADDR_INDEX) -- Value=0xE0001000  returns 0x00 (0000ms, 69589ms total)
T0300 18416:078 JLINK_GetDebugInfo(0x106 = JLINKARM_DEBUG_INFO_FPB_ADDR_INDEX) -- Value=0xE0002000  returns 0x00 (0000ms, 69589ms total)
T0300 18416:078 JLINK_GetDebugInfo(0x107 = JLINKARM_DEBUG_INFO_NVIC_ADDR_INDEX) -- Value=0xE000E000  returns 0x00 (0000ms, 69589ms total)
T0300 18416:078 JLINK_GetDebugInfo(0x10C = JLINKARM_DEBUG_INFO_DBG_ADDR_INDEX) -- Value=0xE000EDF0  returns 0x00 (0000ms, 69589ms total)
T0300 18416:078 JLINK_GetDebugInfo(0x01 = Unknown) -- Value=0x00000000  returns 0x00 (0000ms, 69589ms total)
T0300 18416:078 JLINK_ReadMemU32(0xE000ED00, 0x0001 Items, ...) -- CPU_ReadMem(4 bytes @ 0xE000ED00) - Data: 31 C2 1F 41  returns 0x01 (0000ms, 69589ms total)
T0300 18416:079 JLINK_GetDebugInfo(0x10F = JLINKARM_DEBUG_INFO_HAS_CORTEX_M_SECURITY_EXT_INDEX) -- Value=0x00000000  returns 0x00 (0000ms, 69589ms total)
T0300 18416:079 JLINK_SetResetType(JLINKARM_CM3_RESET_TYPE_NORMAL)  returns JLINKARM_CM3_RESET_TYPE_NORMAL (0000ms, 69589ms total)
T0300 18416:079 JLINK_Reset() -- CPU is running -- CPU_WriteMem(4 bytes @ 0xE000EDF0) -- CPU is running -- CPU_WriteMem(4 bytes @ 0xE000EDFC)Reset: Halt core after reset via DEMCR.VC_CORERESET. >0x35 TIF>Reset: Reset device via AIRCR.SYSRESETREQ. -- CPU is running -- CPU_WriteMem(4 bytes @ 0xE000ED0C) >0x0D TIF> >0x28 TIF> -- CPU_ReadMem(4 bytes @ 0xE000EDF0) -- CPU_ReadMem(4 bytes @ 0xE000EDF0) -- CPU is running -- CPU_WriteMem(4 bytes @ 0xE000EDF0) -- CPU is running
 -- CPU_WriteMem(4 bytes @ 0xE000EDFC) -- CPU_ReadMem(4 bytes @ 0xE000EDF0) -- CPU_WriteMem(4 bytes @ 0xE0002000) -- CPU_ReadMem(4 bytes @ 0xE000EDFC) -- CPU_ReadMem(4 bytes @ 0xE0001000) (0082ms, 69671ms total)
T0300 18416:161 JLINK_Halt()  returns 0x00 (0000ms, 69671ms total)
T0300 18416:161 JLINK_ReadMemU32(0xE000EDF0, 0x0001 Items, ...) -- CPU_ReadMem(4 bytes @ 0xE000EDF0) - Data: 03 00 03 00  returns 0x01 (0001ms, 69672ms total)
T0300 18416:162 JLINK_WriteU32(0xE000EDF0, 0xA05F0003) -- CPU_WriteMem(4 bytes @ 0xE000EDF0)  returns 0x00 (0001ms, 69673ms total)
T0300 18416:163 JLINK_WriteU32(0xE000EDFC, 0x01000000) -- CPU_WriteMem(4 bytes @ 0xE000EDFC)  returns 0x00 (0001ms, 69674ms total)
T0300 18416:194 JLINK_GetHWStatus(...)  returns 0x00 (0001ms, 69675ms total)
T0300 18416:210 JLINK_GetNumBPUnits(Type = 0xFFFFFF00)  returns 0x06 (0000ms, 69675ms total)
T0300 18416:210 JLINK_GetNumBPUnits(Type = 0xF0)  returns 0x2000 (0000ms, 69675ms total)
T0300 18416:210 JLINK_GetNumWPUnits()  returns 0x04 (0000ms, 69675ms total)
T0300 18416:220 JLINK_GetSpeed()  returns 0xFA0 (0000ms, 69675ms total)
T0300 18416:225 JLINK_ReadMemU32(0xE000E004, 0x0001 Items, ...) -- CPU_ReadMem(4 bytes @ 0xE000E004) - Data: 01 00 00 00  returns 0x01 (0002ms, 69677ms total)
T0300 18416:227 JLINK_ReadMemU32(0xE000E004, 0x0001 Items, ...) -- CPU_ReadMem(4 bytes @ 0xE000E004) - Data: 01 00 00 00  returns 0x01 (0001ms, 69678ms total)
T0300 18416:228 JLINK_WriteMemEx(0xE0001000, 0x001C Bytes, ..., Flags = 0x02000004) - Data: 01 00 00 00 00 00 00 00 00 00 00 00 00 00 00 00 ... -- CPU_WriteMem(28 bytes @ 0xE0001000)  returns 0x1C (0002ms, 69680ms total)
T0300 18416:230 JLINK_Halt()  returns 0x00 (0000ms, 69680ms total)
T0300 18416:230 JLINK_IsHalted()  returns TRUE (0000ms, 69680ms total)
T0300 18416:232 JLINK_WriteMem(0x20000000, 0x0164 Bytes, ...) - Data: 00 BE 0A E0 0D 78 2D 06 68 40 08 24 40 00 00 D3 ... -- CPU_WriteMem(356 bytes @ 0x20000000)  returns 0x164 (0006ms, 69686ms total)
T0300 18416:238 JLINK_WriteReg(R0, 0x08000000)  returns 0x00 (0000ms, 69686ms total)
T0300 18416:238 JLINK_WriteReg(R1, 0x00B71B00)  returns 0x00 (0000ms, 69686ms total)
T0300 18416:238 JLINK_WriteReg(R2, 0x00000001)  returns 0x00 (0000ms, 69686ms total)
T0300 18416:238 JLINK_WriteReg(R3, 0x00000000)  returns 0x00 (0000ms, 69686ms total)
T0300 18416:238 JLINK_WriteReg(R4, 0x00000000)  returns 0x00 (0000ms, 69686ms total)
T0300 18416:238 JLINK_WriteReg(R5, 0x00000000)  returns 0x00 (0000ms, 69686ms total)
T0300 18416:238 JLINK_WriteReg(R6, 0x00000000)  returns 0x00 (0000ms, 69686ms total)
T0300 18416:238 JLINK_WriteReg(R7, 0x00000000)  returns 0x00 (0000ms, 69686ms total)
T0300 18416:238 JLINK_WriteReg(R8, 0x00000000)  returns 0x00 (0000ms, 69686ms total)
T0300 18416:238 JLINK_WriteReg(R9, 0x20000160)  returns 0x00 (0000ms, 69686ms total)
T0300 18416:238 JLINK_WriteReg(R10, 0x00000000)  returns 0x00 (0000ms, 69686ms total)
T0300 18416:238 JLINK_WriteReg(R11, 0x00000000)  returns 0x00 (0000ms, 69686ms total)
T0300 18416:238 JLINK_WriteReg(R12, 0x00000000)  returns 0x00 (0000ms, 69686ms total)
T0300 18416:238 JLINK_WriteReg(R13 (SP), 0x20001000)  returns 0x00 (0000ms, 69686ms total)
T0300 18416:238 JLINK_WriteReg(R14, 0x20000001)  returns 0x00 (0000ms, 69686ms total)
T0300 18416:238 JLINK_WriteReg(R15 (PC), 0x20000038)  returns 0x00 (0000ms, 69686ms total)
T0300 18416:238 JLINK_WriteReg(XPSR, 0x01000000)  returns 0x00 (0000ms, 69686ms total)
T0300 18416:238 JLINK_WriteReg(MSP, 0x20001000)  returns 0x00 (0000ms, 69686ms total)
T0300 18416:238 JLINK_WriteReg(PSP, 0x20001000)  returns 0x00 (0000ms, 69686ms total)
T0300 18416:238 JLINK_WriteReg(CFBP, 0x00000000)  returns 0x00 (0000ms, 69686ms total)
T0300 18416:238 JLINK_SetBPEx(Addr = 0x20000000, Type = 0xFFFFFFF2) -- CPU_ReadMem(2 bytes @ 0x20000000)  returns 0x00000001 (0002ms, 69688ms total)
T0300 18416:240 JLINK_Go() -- CPU_WriteMem(2 bytes @ 0x20000000) -- CPU_ReadMem(4 bytes @ 0xE0001000) -- CPU_WriteMem(4 bytes @ 0xE0002008) -- CPU_WriteMem(4 bytes @ 0xE000200C) -- CPU_WriteMem(4 bytes @ 0xE0002010) -- CPU_WriteMem(4 bytes @ 0xE0002014) -- CPU_WriteMem(4 bytes @ 0xE0002018) -- CPU_WriteMem(4 bytes @ 0xE000201C) -- CPU_WriteMem(4 bytes @ 0xE0001004) (0011ms, 69699ms total)
T0300 18416:251 JLINK_IsHalted() -- CPU_ReadMem(2 bytes @ 0x20000000)  returns TRUE (0005ms, 69704ms total)
T0300 18416:256 JLINK_ReadReg(R15 (PC))  returns 0x20000000 (0000ms, 69699ms total)
T0300 18416:256 JLINK_ClrBPEx(BPHandle = 0x00000001)  returns 0x00 (0000ms, 69699ms total)
T0300 18416:256 JLINK_ReadReg(R0)  returns 0x00000000 (0000ms, 69699ms total)
T0300 18416:256 JLINK_WriteReg(R0, 0x08000000)  returns 0x00 (0000ms, 69699ms total)
T0300 18416:256 JLINK_WriteReg(R1, 0x00B71B00)  returns 0x00 (0000ms, 69699ms total)
T0300 18416:256 JLINK_WriteReg(R2, 0x00000001)  returns 0x00 (0000ms, 69699ms total)
T0300 18416:256 JLINK_WriteReg(R3, 0x00000000)  returns 0x00 (0000ms, 69699ms total)
T0300 18416:256 JLINK_WriteReg(R4, 0x00000000)  returns 0x00 (0000ms, 69699ms total)
T0300 18416:256 JLINK_WriteReg(R5, 0x00000000)  returns 0x00 (0000ms, 69699ms total)
T0300 18416:256 JLINK_WriteReg(R6, 0x00000000)  returns 0x00 (0000ms, 69699ms total)
T0300 18416:256 JLINK_WriteReg(R7, 0x00000000)  returns 0x00 (0000ms, 69699ms total)
T0300 18416:256 JLINK_WriteReg(R8, 0x00000000)  returns 0x00 (0000ms, 69699ms total)
T0300 18416:256 JLINK_WriteReg(R9, 0x20000160)  returns 0x00 (0000ms, 69699ms total)
T0300 18416:256 JLINK_WriteReg(R10, 0x00000000)  returns 0x00 (0000ms, 69699ms total)
T0300 18416:256 JLINK_WriteReg(R11, 0x00000000)  returns 0x00 (0000ms, 69699ms total)
T0300 18416:256 JLINK_WriteReg(R12, 0x00000000)  returns 0x00 (0000ms, 69699ms total)
T0300 18416:256 JLINK_WriteReg(R13 (SP), 0x20001000)  returns 0x00 (0000ms, 69699ms total)
T0300 18416:256 JLINK_WriteReg(R14, 0x20000001)  returns 0x00 (0001ms, 69700ms total)
T0300 18416:257 JLINK_WriteReg(R15 (PC), 0x2000007C)  returns 0x00 (0000ms, 69700ms total)
T0300 18416:257 JLINK_WriteReg(XPSR, 0x01000000)  returns 0x00 (0000ms, 69700ms total)
T0300 18416:257 JLINK_WriteReg(MSP, 0x20001000)  returns 0x00 (0000ms, 69700ms total)
T0300 18416:257 JLINK_WriteReg(PSP, 0x20001000)  returns 0x00 (0000ms, 69700ms total)
T0300 18416:257 JLINK_WriteReg(CFBP, 0x00000000)  returns 0x00 (0000ms, 69700ms total)
T0300 18416:257 JLINK_SetBPEx(Addr = 0x20000000, Type = 0xFFFFFFF2)  returns 0x00000002 (0000ms, 69700ms total)
T0300 18416:257 JLINK_Go() -- CPU_ReadMem(4 bytes @ 0xE0001000) (0003ms, 69703ms total)
T0300 18416:260 JLINK_IsHalted()  returns FALSE (0001ms, 69704ms total)
T0300 18416:305 JLINK_IsHalted() -- CPU_ReadMem(2 bytes @ 0x20000000)  returns TRUE (0005ms, 69708ms total)
T0300 18416:310 JLINK_ReadReg(R15 (PC))  returns 0x20000000 (0000ms, 69703ms total)
T0300 18416:310 JLINK_ClrBPEx(BPHandle = 0x00000002)  returns 0x00 (0000ms, 69703ms total)
T0300 18416:310 JLINK_ReadReg(R0)  returns 0x00000000 (0000ms, 69703ms total)
T0300 18416:362 JLINK_WriteReg(R0, 0x00000001)  returns 0x00 (0000ms, 69703ms total)
T0300 18416:362 JLINK_WriteReg(R1, 0x00B71B00)  returns 0x00 (0000ms, 69703ms total)
T0300 18416:362 JLINK_WriteReg(R2, 0x00000001)  returns 0x00 (0000ms, 69703ms total)
T0300 18416:362 JLINK_WriteReg(R3, 0x00000000)  returns 0x00 (0000ms, 69703ms total)
T0300 18416:362 JLINK_WriteReg(R4, 0x00000000)  returns 0x00 (0000ms, 69703ms total)
T0300 18416:362 JLINK_WriteReg(R5, 0x00000000)  returns 0x00 (0000ms, 69703ms total)
T0300 18416:362 JLINK_WriteReg(R6, 0x00000000)  returns 0x00 (0000ms, 69703ms total)
T0300 18416:363 JLINK_WriteReg(R7, 0x00000000)  returns 0x00 (0000ms, 69704ms total)
T0300 18416:363 JLINK_WriteReg(R8, 0x00000000)  returns 0x00 (0000ms, 69704ms total)
T0300 18416:363 JLINK_WriteReg(R9, 0x20000160)  returns 0x00 (0000ms, 69704ms total)
T0300 18416:363 JLINK_WriteReg(R10, 0x00000000)  returns 0x00 (0000ms, 69704ms total)
T0300 18416:363 JLINK_WriteReg(R11, 0x00000000)  returns 0x00 (0000ms, 69704ms total)
T0300 18416:363 JLINK_WriteReg(R12, 0x00000000)  returns 0x00 (0000ms, 69704ms total)
T0300 18416:363 JLINK_WriteReg(R13 (SP), 0x20001000)  returns 0x00 (0000ms, 69704ms total)
T0300 18416:363 JLINK_WriteReg(R14, 0x20000001)  returns 0x00 (0000ms, 69704ms total)
T0300 18416:363 JLINK_WriteReg(R15 (PC), 0x2000006A)  returns 0x00 (0000ms, 69704ms total)
T0300 18416:363 JLINK_WriteReg(XPSR, 0x01000000)  returns 0x00 (0000ms, 69704ms total)
T0300 18416:363 JLINK_WriteReg(MSP, 0x20001000)  returns 0x00 (0000ms, 69704ms total)
T0300 18416:363 JLINK_WriteReg(PSP, 0x20001000)  returns 0x00 (0000ms, 69704ms total)
T0300 18416:363 JLINK_WriteReg(CFBP, 0x00000000)  returns 0x00 (0000ms, 69704ms total)
T0300 18416:363 JLINK_SetBPEx(Addr = 0x20000000, Type = 0xFFFFFFF2)  returns 0x00000003 (0001ms, 69705ms total)
T0300 18416:364 JLINK_Go() -- CPU_ReadMem(4 bytes @ 0xE0001000) (0003ms, 69708ms total)
T0300 18416:367 JLINK_IsHalted() -- CPU_ReadMem(2 bytes @ 0x20000000)  returns TRUE (0005ms, 69713ms total)
T0300 18416:372 JLINK_ReadReg(R15 (PC))  returns 0x20000000 (0000ms, 69708ms total)
T0300 18416:372 JLINK_ClrBPEx(BPHandle = 0x00000003)  returns 0x00 (0000ms, 69708ms total)
T0300 18416:372 JLINK_ReadReg(R0)  returns 0x00000000 (0000ms, 69708ms total)
T0300 18416:385 JLINK_WriteMem(0x20000000, 0x0164 Bytes, ...) - Data: 00 BE 0A E0 0D 78 2D 06 68 40 08 24 40 00 00 D3 ... -- CPU_WriteMem(356 bytes @ 0x20000000)  returns 0x164 (0004ms, 69712ms total)
T0300 18416:390 JLINK_WriteReg(R0, 0x08000000)  returns 0x00 (0000ms, 69712ms total)
T0300 18416:390 JLINK_WriteReg(R1, 0x00B71B00)  returns 0x00 (0000ms, 69712ms total)
T0300 18416:390 JLINK_WriteReg(R2, 0x00000002)  returns 0x00 (0000ms, 69712ms total)
T0300 18416:390 JLINK_WriteReg(R3, 0x00000000)  returns 0x00 (0000ms, 69712ms total)
T0300 18416:390 JLINK_WriteReg(R4, 0x00000000)  returns 0x00 (0000ms, 69712ms total)
T0300 18416:390 JLINK_WriteReg(R5, 0x00000000)  returns 0x00 (0000ms, 69712ms total)
T0300 18416:390 JLINK_WriteReg(R6, 0x00000000)  returns 0x00 (0000ms, 69712ms total)
T0300 18416:390 JLINK_WriteReg(R7, 0x00000000)  returns 0x00 (0000ms, 69712ms total)
T0300 18416:390 JLINK_WriteReg(R8, 0x00000000)  returns 0x00 (0000ms, 69712ms total)
T0300 18416:390 JLINK_WriteReg(R9, 0x20000160)  returns 0x00 (0000ms, 69712ms total)
T0300 18416:390 JLINK_WriteReg(R10, 0x00000000)  returns 0x00 (0000ms, 69712ms total)
T0300 18416:390 JLINK_WriteReg(R11, 0x00000000)  returns 0x00 (0000ms, 69712ms total)
T0300 18416:390 JLINK_WriteReg(R12, 0x00000000)  returns 0x00 (0000ms, 69712ms total)
T0300 18416:390 JLINK_WriteReg(R13 (SP), 0x20001000)  returns 0x00 (0000ms, 69712ms total)
T0300 18416:390 JLINK_WriteReg(R14, 0x20000001)  returns 0x00 (0000ms, 69712ms total)
T0300 18416:390 JLINK_WriteReg(R15 (PC), 0x20000038)  returns 0x00 (0000ms, 69712ms total)
T0300 18416:390 JLINK_WriteReg(XPSR, 0x01000000)  returns 0x00 (0000ms, 69712ms total)
T0300 18416:390 JLINK_WriteReg(MSP, 0x20001000)  returns 0x00 (0000ms, 69712ms total)
T0300 18416:390 JLINK_WriteReg(PSP, 0x20001000)  returns 0x00 (0000ms, 69712ms total)
T0300 18416:390 JLINK_WriteReg(CFBP, 0x00000000)  returns 0x00 (0000ms, 69712ms total)
T0300 18416:390 JLINK_SetBPEx(Addr = 0x20000000, Type = 0xFFFFFFF2) -- CPU_ReadMem(2 bytes @ 0x20000000)  returns 0x00000004 (0001ms, 69713ms total)
T0300 18416:391 JLINK_Go() -- CPU_WriteMem(2 bytes @ 0x20000000) -- CPU_ReadMem(4 bytes @ 0xE0001000) (0005ms, 69718ms total)
T0300 18416:396 JLINK_IsHalted() -- CPU_ReadMem(2 bytes @ 0x20000000)  returns TRUE (0005ms, 69723ms total)
T0300 18416:401 JLINK_ReadReg(R15 (PC))  returns 0x20000000 (0000ms, 69718ms total)
T0300 18416:401 JLINK_ClrBPEx(BPHandle = 0x00000004)  returns 0x00 (0000ms, 69718ms total)
T0300 18416:401 JLINK_ReadReg(R0)  returns 0x00000000 (0000ms, 69718ms total)
T0300 18416:401 JLINK_WriteMem(0x20000164, 0x029C Bytes, ...) - Data: 90 0A 00 20 39 10 00 08 81 02 00 08 83 02 00 08 ... -- CPU_WriteMem(668 bytes @ 0x20000164)  returns 0x29C (0009ms, 69727ms total)
T0300 18416:410 JLINK_WriteMem(0x20000400, 0x0164 Bytes, ...) - Data: 0C B5 00 20 01 90 00 90 6C 48 00 68 40 F4 80 30 ... -- CPU_WriteMem(356 bytes @ 0x20000400)  returns 0x164 (0004ms, 69731ms total)
T0300 18416:414 JLINK_WriteReg(R0, 0x08000000)  returns 0x00 (0000ms, 69731ms total)
T0300 18416:414 JLINK_WriteReg(R1, 0x00000400)  returns 0x00 (0000ms, 69731ms total)
T0300 18416:414 JLINK_WriteReg(R2, 0x20000164)  returns 0x00 (0000ms, 69731ms total)
T0300 18416:414 JLINK_WriteReg(R3, 0x00000000)  returns 0x00 (0001ms, 69732ms total)
T0300 18416:415 JLINK_WriteReg(R4, 0x00000000)  returns 0x00 (0000ms, 69732ms total)
T0300 18416:415 JLINK_WriteReg(R5, 0x00000000)  returns 0x00 (0000ms, 69732ms total)
T0300 18416:415 JLINK_WriteReg(R6, 0x00000000)  returns 0x00 (0000ms, 69732ms total)
T0300 18416:415 JLINK_WriteReg(R7, 0x00000000)  returns 0x00 (0000ms, 69732ms total)
T0300 18416:415 JLINK_WriteReg(R8, 0x00000000)  returns 0x00 (0000ms, 69732ms total)
T0300 18416:415 JLINK_WriteReg(R9, 0x20000160)  returns 0x00 (0000ms, 69732ms total)
T0300 18416:415 JLINK_WriteReg(R10, 0x00000000)  returns 0x00 (0000ms, 69732ms total)
T0300 18416:415 JLINK_WriteReg(R11, 0x00000000)  returns 0x00 (0000ms, 69732ms total)
T0300 18416:415 JLINK_WriteReg(R12, 0x00000000)  returns 0x00 (0000ms, 69732ms total)
T0300 18416:415 JLINK_WriteReg(R13 (SP), 0x20001000)  returns 0x00 (0000ms, 69732ms total)
T0300 18416:415 JLINK_WriteReg(R14, 0x20000001)  returns 0x00 (0000ms, 69732ms total)
T0300 18416:415 JLINK_WriteReg(R15 (PC), 0x200000F4)  returns 0x00 (0000ms, 69732ms total)
T0300 18416:415 JLINK_WriteReg(XPSR, 0x01000000)  returns 0x00 (0000ms, 69732ms total)
T0300 18416:415 JLINK_WriteReg(MSP, 0x20001000)  returns 0x00 (0000ms, 69732ms total)
T0300 18416:415 JLINK_WriteReg(PSP, 0x20001000)  returns 0x00 (0000ms, 69732ms total)
T0300 18416:415 JLINK_WriteReg(CFBP, 0x00000000)  returns 0x00 (0000ms, 69732ms total)
T0300 18416:415 JLINK_SetBPEx(Addr = 0x20000000, Type = 0xFFFFFFF2)  returns 0x00000005 (0000ms, 69732ms total)
T0300 18416:415 JLINK_Go() -- CPU_ReadMem(4 bytes @ 0xE0001000) (0004ms, 69736ms total)
T0300 18416:419 JLINK_IsHalted()  returns FALSE (0001ms, 69737ms total)
T0300 18416:431 JLINK_IsHalted()  returns FALSE (0001ms, 69737ms total)
T0300 18416:433 JLINK_IsHalted()  returns FALSE (0001ms, 69737ms total)
T0300 18416:435 JLINK_IsHalted()  returns FALSE (0001ms, 69737ms total)
T0300 18416:437 JLINK_IsHalted()  returns FALSE (0001ms, 69737ms total)
T0300 18416:439 JLINK_IsHalted()  returns FALSE (0001ms, 69737ms total)
T0300 18416:441 JLINK_IsHalted()  returns FALSE (0001ms, 69737ms total)
T0300 18416:443 JLINK_IsHalted()  returns FALSE (0001ms, 69737ms total)
T0300 18416:445 JLINK_IsHalted()  returns FALSE (0001ms, 69737ms total)
T0300 18416:447 JLINK_IsHalted()  returns FALSE (0001ms, 69737ms total)
T0300 18416:449 JLINK_IsHalted()  returns FALSE (0001ms, 69737ms total)
T0300 18416:451 JLINK_IsHalted() -- CPU_ReadMem(2 bytes @ 0x20000000)  returns TRUE (0005ms, 69741ms total)
T0300 18416:456 JLINK_ReadReg(R15 (PC))  returns 0x20000000 (0000ms, 69736ms total)
T0300 18416:456 JLINK_ClrBPEx(BPHandle = 0x00000005)  returns 0x00 (0000ms, 69736ms total)
T0300 18416:456 JLINK_ReadReg(R0)  returns 0x00000000 (0000ms, 69736ms total)
T0300 18416:456 JLINK_WriteMem(0x20000164, 0x029C Bytes, ...) - Data: 03 F4 80 32 02 23 03 EB 90 40 22 B9 19 4B 43 43 ... -- CPU_WriteMem(668 bytes @ 0x20000164)  returns 0x29C (0009ms, 69745ms total)
T0300 18416:465 JLINK_WriteMem(0x20000400, 0x0164 Bytes, ...) - Data: 02 20 8D F8 0E 00 01 20 8D F8 0F 00 03 A8 00 F0 ... -- CPU_WriteMem(356 bytes @ 0x20000400)  returns 0x164 (0005ms, 69750ms total)
T0300 18416:470 JLINK_WriteReg(R0, 0x08000400)  returns 0x00 (0000ms, 69750ms total)
T0300 18416:470 JLINK_WriteReg(R1, 0x00000400)  returns 0x00 (0000ms, 69750ms total)
T0300 18416:470 JLINK_WriteReg(R2, 0x20000164)  returns 0x00 (0000ms, 69750ms total)
T0300 18416:470 JLINK_WriteReg(R3, 0x00000000)  returns 0x00 (0000ms, 69750ms total)
T0300 18416:470 JLINK_WriteReg(R4, 0x00000000)  returns 0x00 (0000ms, 69750ms total)
T0300 18416:470 JLINK_WriteReg(R5, 0x00000000)  returns 0x00 (0000ms, 69750ms total)
T0300 18416:470 JLINK_WriteReg(R6, 0x00000000)  returns 0x00 (0000ms, 69750ms total)
T0300 18416:470 JLINK_WriteReg(R7, 0x00000000)  returns 0x00 (0000ms, 69750ms total)
T0300 18416:470 JLINK_WriteReg(R8, 0x00000000)  returns 0x00 (0000ms, 69750ms total)
T0300 18416:470 JLINK_WriteReg(R9, 0x20000160)  returns 0x00 (0000ms, 69750ms total)
T0300 18416:470 JLINK_WriteReg(R10, 0x00000000)  returns 0x00 (0000ms, 69750ms total)
T0300 18416:470 JLINK_WriteReg(R11, 0x00000000)  returns 0x00 (0000ms, 69750ms total)
T0300 18416:470 JLINK_WriteReg(R12, 0x00000000)  returns 0x00 (0000ms, 69750ms total)
T0300 18416:470 JLINK_WriteReg(R13 (SP), 0x20001000)  returns 0x00 (0000ms, 69750ms total)
T0300 18416:470 JLINK_WriteReg(R14, 0x20000001)  returns 0x00 (0000ms, 69750ms total)
T0300 18416:470 JLINK_WriteReg(R15 (PC), 0x200000F4)  returns 0x00 (0000ms, 69750ms total)
T0300 18416:470 JLINK_WriteReg(XPSR, 0x01000000)  returns 0x00 (0000ms, 69750ms total)
T0300 18416:470 JLINK_WriteReg(MSP, 0x20001000)  returns 0x00 (0000ms, 69750ms total)
T0300 18416:470 JLINK_WriteReg(PSP, 0x20001000)  returns 0x00 (0000ms, 69750ms total)
T0300 18416:470 JLINK_WriteReg(CFBP, 0x00000000)  returns 0x00 (0000ms, 69750ms total)
T0300 18416:470 JLINK_SetBPEx(Addr = 0x20000000, Type = 0xFFFFFFF2)  returns 0x00000006 (0000ms, 69750ms total)
T0300 18416:470 JLINK_Go() -- CPU_ReadMem(4 bytes @ 0xE0001000) (0005ms, 69755ms total)
T0300 18416:475 JLINK_IsHalted()  returns FALSE (0001ms, 69756ms total)
T0300 18416:477 JLINK_IsHalted()  returns FALSE (0001ms, 69756ms total)
T0300 18416:479 JLINK_IsHalted()  returns FALSE (0001ms, 69756ms total)
T0300 18416:481 JLINK_IsHalted()  returns FALSE (0001ms, 69756ms total)
T0300 18416:483 JLINK_IsHalted()  returns FALSE (0001ms, 69756ms total)
T0300 18416:485 JLINK_IsHalted()  returns FALSE (0001ms, 69756ms total)
T0300 18416:491 JLINK_IsHalted()  returns FALSE (0001ms, 69756ms total)
T0300 18416:493 JLINK_IsHalted()  returns FALSE (0001ms, 69756ms total)
T0300 18416:495 JLINK_IsHalted()  returns FALSE (0001ms, 69756ms total)
T0300 18416:497 JLINK_IsHalted()  returns FALSE (0001ms, 69756ms total)
T0300 18416:499 JLINK_IsHalted()  returns FALSE (0001ms, 69756ms total)
T0300 18416:501 JLINK_IsHalted()  returns FALSE (0001ms, 69756ms total)
T0300 18416:503 JLINK_IsHalted()  returns FALSE (0001ms, 69756ms total)
T0300 18416:505 JLINK_IsHalted()  returns FALSE (0001ms, 69756ms total)
T0300 18416:507 JLINK_IsHalted() -- CPU_ReadMem(2 bytes @ 0x20000000)  returns TRUE (0005ms, 69760ms total)
T0300 18416:512 JLINK_ReadReg(R15 (PC))  returns 0x20000000 (0000ms, 69755ms total)
T0300 18416:512 JLINK_ClrBPEx(BPHandle = 0x00000006)  returns 0x00 (0000ms, 69755ms total)
T0300 18416:512 JLINK_ReadReg(R0)  returns 0x00000000 (0000ms, 69755ms total)
T0300 18416:512 JLINK_WriteMem(0x20000164, 0x029C Bytes, ...) - Data: 66 FB 85 B2 00 24 0D E0 00 BF 40 21 08 48 01 F0 ... -- CPU_WriteMem(668 bytes @ 0x20000164)  returns 0x29C (0009ms, 69764ms total)
T0300 18416:521 JLINK_WriteMem(0x20000400, 0x0164 Bytes, ...) - Data: 44 00 00 20 41 54 2B 00 25 73 00 00 25 63 00 00 ... -- CPU_WriteMem(356 bytes @ 0x20000400)  returns 0x164 (0005ms, 69769ms total)
T0300 18416:526 JLINK_WriteReg(R0, 0x08000800)  returns 0x00 (0000ms, 69769ms total)
T0300 18416:526 JLINK_WriteReg(R1, 0x00000400)  returns 0x00 (0000ms, 69769ms total)
T0300 18416:526 JLINK_WriteReg(R2, 0x20000164)  returns 0x00 (0000ms, 69769ms total)
T0300 18416:526 JLINK_WriteReg(R3, 0x00000000)  returns 0x00 (0000ms, 69769ms total)
T0300 18416:526 JLINK_WriteReg(R4, 0x00000000)  returns 0x00 (0000ms, 69769ms total)
T0300 18416:526 JLINK_WriteReg(R5, 0x00000000)  returns 0x00 (0000ms, 69769ms total)
T0300 18416:526 JLINK_WriteReg(R6, 0x00000000)  returns 0x00 (0000ms, 69769ms total)
T0300 18416:526 JLINK_WriteReg(R7, 0x00000000)  returns 0x00 (0000ms, 69769ms total)
T0300 18416:526 JLINK_WriteReg(R8, 0x00000000)  returns 0x00 (0000ms, 69769ms total)
T0300 18416:526 JLINK_WriteReg(R9, 0x20000160)  returns 0x00 (0000ms, 69769ms total)
T0300 18416:526 JLINK_WriteReg(R10, 0x00000000)  returns 0x00 (0000ms, 69769ms total)
T0300 18416:526 JLINK_WriteReg(R11, 0x00000000)  returns 0x00 (0000ms, 69769ms total)
T0300 18416:526 JLINK_WriteReg(R12, 0x00000000)  returns 0x00 (0000ms, 69769ms total)
T0300 18416:526 JLINK_WriteReg(R13 (SP), 0x20001000)  returns 0x00 (0000ms, 69769ms total)
T0300 18416:526 JLINK_WriteReg(R14, 0x20000001)  returns 0x00 (0000ms, 69769ms total)
T0300 18416:526 JLINK_WriteReg(R15 (PC), 0x200000F4)  returns 0x00 (0000ms, 69769ms total)
T0300 18416:526 JLINK_WriteReg(XPSR, 0x01000000)  returns 0x00 (0000ms, 69769ms total)
T0300 18416:526 JLINK_WriteReg(MSP, 0x20001000)  returns 0x00 (0000ms, 69769ms total)
T0300 18416:526 JLINK_WriteReg(PSP, 0x20001000)  returns 0x00 (0000ms, 69769ms total)
T0300 18416:526 JLINK_WriteReg(CFBP, 0x00000000)  returns 0x00 (0000ms, 69769ms total)
T0300 18416:526 JLINK_SetBPEx(Addr = 0x20000000, Type = 0xFFFFFFF2)  returns 0x00000007 (0000ms, 69769ms total)
T0300 18416:526 JLINK_Go() -- CPU_ReadMem(4 bytes @ 0xE0001000) (0005ms, 69774ms total)
T0300 18416:531 JLINK_IsHalted()  returns FALSE (0001ms, 69775ms total)
T0300 18416:533 JLINK_IsHalted()  returns FALSE (0001ms, 69775ms total)
T0300 18416:535 JLINK_IsHalted()  returns FALSE (0001ms, 69775ms total)
T0300 18416:537 JLINK_IsHalted()  returns FALSE (0001ms, 69775ms total)
T0300 18416:539 JLINK_IsHalted()  returns FALSE (0001ms, 69775ms total)
T0300 18416:541 JLINK_IsHalted()  returns FALSE (0001ms, 69775ms total)
T0300 18416:543 JLINK_IsHalted()  returns FALSE (0001ms, 69775ms total)
T0300 18416:545 JLINK_IsHalted()  returns FALSE (0001ms, 69775ms total)
T0300 18416:547 JLINK_IsHalted()  returns FALSE (0001ms, 69775ms total)
T0300 18416:549 JLINK_IsHalted()  returns FALSE (0001ms, 69775ms total)
T0300 18416:554 JLINK_IsHalted()  returns FALSE (0001ms, 69775ms total)
T0300 18416:556 JLINK_IsHalted()  returns FALSE (0001ms, 69775ms total)
T0300 18416:558 JLINK_IsHalted()  returns FALSE (0001ms, 69775ms total)
T0300 18416:560 JLINK_IsHalted()  returns FALSE (0001ms, 69775ms total)
T0300 18416:566 JLINK_IsHalted() -- CPU_ReadMem(2 bytes @ 0x20000000)  returns TRUE (0004ms, 69778ms total)
T0300 18416:570 JLINK_ReadReg(R15 (PC))  returns 0x20000000 (0000ms, 69774ms total)
T0300 18416:570 JLINK_ClrBPEx(BPHandle = 0x00000007)  returns 0x00 (0000ms, 69774ms total)
T0300 18416:570 JLINK_ReadReg(R0)  returns 0x00000000 (0000ms, 69774ms total)
T0300 18416:571 JLINK_WriteMem(0x20000164, 0x029C Bytes, ...) - Data: 49 53 41 54 41 3D 30 0D 0A 00 00 00 43 4F 4E 4E ... -- CPU_WriteMem(668 bytes @ 0x20000164)  returns 0x29C (0008ms, 69782ms total)
T0300 18416:579 JLINK_WriteMem(0x20000400, 0x0164 Bytes, ...) - Data: 10 69 00 F0 01 02 1A B1 00 F4 80 32 00 2A F5 D0 ... -- CPU_WriteMem(356 bytes @ 0x20000400)  returns 0x164 (0005ms, 69787ms total)
T0300 18416:584 JLINK_WriteReg(R0, 0x08000C00)  returns 0x00 (0000ms, 69787ms total)
T0300 18416:584 JLINK_WriteReg(R1, 0x00000400)  returns 0x00 (0000ms, 69787ms total)
T0300 18416:584 JLINK_WriteReg(R2, 0x20000164)  returns 0x00 (0000ms, 69787ms total)
T0300 18416:584 JLINK_WriteReg(R3, 0x00000000)  returns 0x00 (0000ms, 69787ms total)
T0300 18416:584 JLINK_WriteReg(R4, 0x00000000)  returns 0x00 (0000ms, 69787ms total)
T0300 18416:584 JLINK_WriteReg(R5, 0x00000000)  returns 0x00 (0000ms, 69787ms total)
T0300 18416:584 JLINK_WriteReg(R6, 0x00000000)  returns 0x00 (0000ms, 69787ms total)
T0300 18416:584 JLINK_WriteReg(R7, 0x00000000)  returns 0x00 (0000ms, 69787ms total)
T0300 18416:584 JLINK_WriteReg(R8, 0x00000000)  returns 0x00 (0000ms, 69787ms total)
T0300 18416:584 JLINK_WriteReg(R9, 0x20000160)  returns 0x00 (0000ms, 69787ms total)
T0300 18416:584 JLINK_WriteReg(R10, 0x00000000)  returns 0x00 (0000ms, 69787ms total)
T0300 18416:584 JLINK_WriteReg(R11, 0x00000000)  returns 0x00 (0000ms, 69787ms total)
T0300 18416:584 JLINK_WriteReg(R12, 0x00000000)  returns 0x00 (0000ms, 69787ms total)
T0300 18416:584 JLINK_WriteReg(R13 (SP), 0x20001000)  returns 0x00 (0000ms, 69787ms total)
T0300 18416:584 JLINK_WriteReg(R14, 0x20000001)  returns 0x00 (0000ms, 69787ms total)
T0300 18416:584 JLINK_WriteReg(R15 (PC), 0x200000F4)  returns 0x00 (0000ms, 69787ms total)
T0300 18416:584 JLINK_WriteReg(XPSR, 0x01000000)  returns 0x00 (0000ms, 69787ms total)
T0300 18416:584 JLINK_WriteReg(MSP, 0x20001000)  returns 0x00 (0000ms, 69787ms total)
T0300 18416:584 JLINK_WriteReg(PSP, 0x20001000)  returns 0x00 (0000ms, 69787ms total)
T0300 18416:584 JLINK_WriteReg(CFBP, 0x00000000)  returns 0x00 (0001ms, 69788ms total)
T0300 18416:585 JLINK_SetBPEx(Addr = 0x20000000, Type = 0xFFFFFFF2)  returns 0x00000008 (0000ms, 69788ms total)
T0300 18416:585 JLINK_Go() -- CPU_ReadMem(4 bytes @ 0xE0001000) (0004ms, 69792ms total)
T0300 18416:589 JLINK_IsHalted()  returns FALSE (0001ms, 69793ms total)
T0300 18416:591 JLINK_IsHalted()  returns FALSE (0001ms, 69793ms total)
T0300 18416:596 JLINK_IsHalted()  returns FALSE (0001ms, 69793ms total)
T0300 18416:598 JLINK_IsHalted()  returns FALSE (0001ms, 69793ms total)
T0300 18416:600 JLINK_IsHalted()  returns FALSE (0001ms, 69793ms total)
T0300 18416:602 JLINK_IsHalted()  returns FALSE (0001ms, 69793ms total)
T0300 18416:604 JLINK_IsHalted()  returns FALSE (0001ms, 69793ms total)
T0300 18416:606 JLINK_IsHalted()  returns FALSE (0001ms, 69793ms total)
T0300 18416:608 JLINK_IsHalted()  returns FALSE (0001ms, 69793ms total)
T0300 18416:610 JLINK_IsHalted()  returns FALSE (0001ms, 69793ms total)
T0300 18416:612 JLINK_IsHalted()  returns FALSE (0001ms, 69793ms total)
T0300 18416:614 JLINK_IsHalted()  returns FALSE (0001ms, 69793ms total)
T0300 18416:616 JLINK_IsHalted()  returns FALSE (0001ms, 69793ms total)
T0300 18416:618 JLINK_IsHalted()  returns FALSE (0001ms, 69793ms total)
T0300 18416:620 JLINK_IsHalted() -- CPU_ReadMem(2 bytes @ 0x20000000)  returns TRUE (0005ms, 69797ms total)
T0300 18416:625 JLINK_ReadReg(R15 (PC))  returns 0x20000000 (0000ms, 69792ms total)
T0300 18416:625 JLINK_ClrBPEx(BPHandle = 0x00000008)  returns 0x00 (0000ms, 69792ms total)
T0300 18416:625 JLINK_ReadReg(R0)  returns 0x00000000 (0000ms, 69792ms total)
T0300 18416:626 JLINK_WriteMem(0x20000164, 0x029C Bytes, ...) - Data: 40 F2 25 51 08 48 00 F0 D7 FD 58 B1 06 48 00 F0 ... -- CPU_WriteMem(668 bytes @ 0x20000164)  returns 0x29C (0008ms, 69800ms total)
T0300 18416:634 JLINK_WriteMem(0x20000400, 0x0164 Bytes, ...) - Data: FF 0F 34 DD 54 68 00 20 2E E0 00 F1 08 0C 4F F0 ... -- CPU_WriteMem(356 bytes @ 0x20000400)  returns 0x164 (0005ms, 69805ms total)
T0300 18416:639 JLINK_WriteReg(R0, 0x08001000)  returns 0x00 (0000ms, 69805ms total)
T0300 18416:639 JLINK_WriteReg(R1, 0x00000400)  returns 0x00 (0000ms, 69805ms total)
T0300 18416:639 JLINK_WriteReg(R2, 0x20000164)  returns 0x00 (0000ms, 69805ms total)
T0300 18416:639 JLINK_WriteReg(R3, 0x00000000)  returns 0x00 (0000ms, 69805ms total)
T0300 18416:639 JLINK_WriteReg(R4, 0x00000000)  returns 0x00 (0000ms, 69805ms total)
T0300 18416:639 JLINK_WriteReg(R5, 0x00000000)  returns 0x00 (0000ms, 69805ms total)
T0300 18416:639 JLINK_WriteReg(R6, 0x00000000)  returns 0x00 (0000ms, 69805ms total)
T0300 18416:639 JLINK_WriteReg(R7, 0x00000000)  returns 0x00 (0000ms, 69805ms total)
T0300 18416:639 JLINK_WriteReg(R8, 0x00000000)  returns 0x00 (0000ms, 69805ms total)
T0300 18416:639 JLINK_WriteReg(R9, 0x20000160)  returns 0x00 (0000ms, 69805ms total)
T0300 18416:639 JLINK_WriteReg(R10, 0x00000000)  returns 0x00 (0001ms, 69806ms total)
T0300 18416:640 JLINK_WriteReg(R11, 0x00000000)  returns 0x00 (0000ms, 69806ms total)
T0300 18416:640 JLINK_WriteReg(R12, 0x00000000)  returns 0x00 (0000ms, 69806ms total)
T0300 18416:640 JLINK_WriteReg(R13 (SP), 0x20001000)  returns 0x00 (0000ms, 69806ms total)
T0300 18416:640 JLINK_WriteReg(R14, 0x20000001)  returns 0x00 (0000ms, 69806ms total)
T0300 18416:640 JLINK_WriteReg(R15 (PC), 0x200000F4)  returns 0x00 (0000ms, 69806ms total)
T0300 18416:640 JLINK_WriteReg(XPSR, 0x01000000)  returns 0x00 (0000ms, 69806ms total)
T0300 18416:640 JLINK_WriteReg(MSP, 0x20001000)  returns 0x00 (0000ms, 69806ms total)
T0300 18416:640 JLINK_WriteReg(PSP, 0x20001000)  returns 0x00 (0000ms, 69806ms total)
T0300 18416:640 JLINK_WriteReg(CFBP, 0x00000000)  returns 0x00 (0000ms, 69806ms total)
T0300 18416:640 JLINK_SetBPEx(Addr = 0x20000000, Type = 0xFFFFFFF2)  returns 0x00000009 (0000ms, 69806ms total)
T0300 18416:640 JLINK_Go() -- CPU_ReadMem(4 bytes @ 0xE0001000) (0005ms, 69811ms total)
T0300 18416:645 JLINK_IsHalted()  returns FALSE (0001ms, 69812ms total)
T0300 18416:647 JLINK_IsHalted()  returns FALSE (0001ms, 69812ms total)
T0300 18416:649 JLINK_IsHalted()  returns FALSE (0001ms, 69812ms total)
T0300 18416:651 JLINK_IsHalted()  returns FALSE (0001ms, 69812ms total)
T0300 18416:653 JLINK_IsHalted()  returns FALSE (0001ms, 69812ms total)
T0300 18416:655 JLINK_IsHalted()  returns FALSE (0001ms, 69812ms total)
T0300 18416:657 JLINK_IsHalted()  returns FALSE (0001ms, 69812ms total)
T0300 18416:659 JLINK_IsHalted()  returns FALSE (0001ms, 69812ms total)
T0300 18416:661 JLINK_IsHalted()  returns FALSE (0001ms, 69812ms total)
T0300 18416:663 JLINK_IsHalted()  returns FALSE (0001ms, 69812ms total)
T0300 18416:665 JLINK_IsHalted()  returns FALSE (0001ms, 69812ms total)
T0300 18416:667 JLINK_IsHalted()  returns FALSE (0001ms, 69812ms total)
T0300 18416:669 JLINK_IsHalted()  returns FALSE (0001ms, 69812ms total)
T0300 18416:671 JLINK_IsHalted()  returns FALSE (0001ms, 69812ms total)
T0300 18416:673 JLINK_IsHalted()  returns FALSE (0001ms, 69812ms total)
T0300 18416:675 JLINK_IsHalted()  returns FALSE (0001ms, 69812ms total)
T0300 18416:677 JLINK_IsHalted() -- CPU_ReadMem(2 bytes @ 0x20000000)  returns TRUE (0005ms, 69816ms total)
T0300 18416:682 JLINK_ReadReg(R15 (PC))  returns 0x20000000 (0000ms, 69816ms total)
T0300 18416:682 JLINK_ClrBPEx(BPHandle = 0x00000009)  returns 0x00 (0000ms, 69816ms total)
T0300 18416:682 JLINK_ReadReg(R0)  returns 0x00000000 (0000ms, 69816ms total)
T0300 18416:683 JLINK_WriteMem(0x20000164, 0x029C Bytes, ...) - Data: 70 61 22 B1 46 0D 36 01 03 FA 06 F6 31 43 00 F0 ... -- CPU_WriteMem(668 bytes @ 0x20000164)  returns 0x29C (0008ms, 69824ms total)
T0300 18416:691 JLINK_WriteMem(0x20000400, 0x0164 Bytes, ...) - Data: 00 24 00 23 5C 4D 6D 68 05 F0 0C 01 21 B1 04 29 ... -- CPU_WriteMem(356 bytes @ 0x20000400)  returns 0x164 (0005ms, 69829ms total)
T0300 18416:696 JLINK_WriteReg(R0, 0x08001400)  returns 0x00 (0000ms, 69829ms total)
T0300 18416:696 JLINK_WriteReg(R1, 0x00000400)  returns 0x00 (0000ms, 69829ms total)
T0300 18416:696 JLINK_WriteReg(R2, 0x20000164)  returns 0x00 (0000ms, 69829ms total)
T0300 18416:696 JLINK_WriteReg(R3, 0x00000000)  returns 0x00 (0000ms, 69829ms total)
T0300 18416:696 JLINK_WriteReg(R4, 0x00000000)  returns 0x00 (0000ms, 69829ms total)
T0300 18416:696 JLINK_WriteReg(R5, 0x00000000)  returns 0x00 (0000ms, 69829ms total)
T0300 18416:696 JLINK_WriteReg(R6, 0x00000000)  returns 0x00 (0000ms, 69829ms total)
T0300 18416:696 JLINK_WriteReg(R7, 0x00000000)  returns 0x00 (0000ms, 69829ms total)
T0300 18416:696 JLINK_WriteReg(R8, 0x00000000)  returns 0x00 (0000ms, 69829ms total)
T0300 18416:696 JLINK_WriteReg(R9, 0x20000160)  returns 0x00 (0000ms, 69829ms total)
T0300 18416:697 JLINK_WriteReg(R10, 0x00000000)  returns 0x00 (0000ms, 69830ms total)
T0300 18416:697 JLINK_WriteReg(R11, 0x00000000)  returns 0x00 (0000ms, 69830ms total)
T0300 18416:697 JLINK_WriteReg(R12, 0x00000000)  returns 0x00 (0000ms, 69830ms total)
T0300 18416:697 JLINK_WriteReg(R13 (SP), 0x20001000)  returns 0x00 (0000ms, 69830ms total)
T0300 18416:697 JLINK_WriteReg(R14, 0x20000001)  returns 0x00 (0000ms, 69830ms total)
T0300 18416:697 JLINK_WriteReg(R15 (PC), 0x200000F4)  returns 0x00 (0000ms, 69830ms total)
T0300 18416:697 JLINK_WriteReg(XPSR, 0x01000000)  returns 0x00 (0000ms, 69830ms total)
T0300 18416:697 JLINK_WriteReg(MSP, 0x20001000)  returns 0x00 (0000ms, 69830ms total)
T0300 18416:697 JLINK_WriteReg(PSP, 0x20001000)  returns 0x00 (0000ms, 69830ms total)
T0300 18416:697 JLINK_WriteReg(CFBP, 0x00000000)  returns 0x00 (0000ms, 69830ms total)
T0300 18416:697 JLINK_SetBPEx(Addr = 0x20000000, Type = 0xFFFFFFF2)  returns 0x0000000A (0000ms, 69830ms total)
T0300 18416:697 JLINK_Go() -- CPU_ReadMem(4 bytes @ 0xE0001000) (0004ms, 69834ms total)
T0300 18416:701 JLINK_IsHalted()  returns FALSE (0001ms, 69835ms total)
T0300 18416:704 JLINK_IsHalted()  returns FALSE (0001ms, 69835ms total)
T0300 18416:711 JLINK_IsHalted()  returns FALSE (0001ms, 69835ms total)
T0300 18416:713 JLINK_IsHalted()  returns FALSE (0001ms, 69835ms total)
T0300 18416:715 JLINK_IsHalted()  returns FALSE (0001ms, 69835ms total)
T0300 18416:717 JLINK_IsHalted()  returns FALSE (0002ms, 69836ms total)
T0300 18416:720 JLINK_IsHalted()  returns FALSE (0001ms, 69835ms total)
T0300 18416:722 JLINK_IsHalted()  returns FALSE (0001ms, 69835ms total)
T0300 18416:724 JLINK_IsHalted()  returns FALSE (0001ms, 69835ms total)
T0300 18416:726 JLINK_IsHalted()  returns FALSE (0001ms, 69835ms total)
T0300 18416:728 JLINK_IsHalted()  returns FALSE (0001ms, 69835ms total)
T0300 18416:730 JLINK_IsHalted()  returns FALSE (0001ms, 69835ms total)
T0300 18416:732 JLINK_IsHalted() -- CPU_ReadMem(2 bytes @ 0x20000000)  returns TRUE (0005ms, 69839ms total)
T0300 18416:737 JLINK_ReadReg(R15 (PC))  returns 0x20000000 (0000ms, 69834ms total)
T0300 18416:737 JLINK_ClrBPEx(BPHandle = 0x0000000A)  returns 0x00 (0000ms, 69834ms total)
T0300 18416:737 JLINK_ReadReg(R0)  returns 0x00000000 (0000ms, 69834ms total)
T0300 18416:738 JLINK_WriteMem(0x20000164, 0x029C Bytes, ...) - Data: 92 68 0A 40 0A B1 01 20 00 E0 00 20 70 47 01 49 ... -- CPU_WriteMem(668 bytes @ 0x20000164)  returns 0x29C (0008ms, 69842ms total)
T0300 18416:746 JLINK_WriteMem(0x20000400, 0x0164 Bytes, ...) - Data: 42 F4 80 42 02 82 04 E0 02 8A 4B F6 FF 73 1A 40 ... -- CPU_WriteMem(356 bytes @ 0x20000400)  returns 0x164 (0005ms, 69847ms total)
T0300 18416:751 JLINK_WriteReg(R0, 0x08001800)  returns 0x00 (0000ms, 69847ms total)
T0300 18416:751 JLINK_WriteReg(R1, 0x00000400)  returns 0x00 (0000ms, 69847ms total)
T0300 18416:751 JLINK_WriteReg(R2, 0x20000164)  returns 0x00 (0000ms, 69847ms total)
T0300 18416:751 JLINK_WriteReg(R3, 0x00000000)  returns 0x00 (0000ms, 69847ms total)
T0300 18416:751 JLINK_WriteReg(R4, 0x00000000)  returns 0x00 (0000ms, 69847ms total)
T0300 18416:751 JLINK_WriteReg(R5, 0x00000000)  returns 0x00 (0000ms, 69847ms total)
T0300 18416:751 JLINK_WriteReg(R6, 0x00000000)  returns 0x00 (0000ms, 69847ms total)
T0300 18416:752 JLINK_WriteReg(R7, 0x00000000)  returns 0x00 (0000ms, 69848ms total)
T0300 18416:752 JLINK_WriteReg(R8, 0x00000000)  returns 0x00 (0000ms, 69848ms total)
T0300 18416:752 JLINK_WriteReg(R9, 0x20000160)  returns 0x00 (0000ms, 69848ms total)
T0300 18416:752 JLINK_WriteReg(R10, 0x00000000)  returns 0x00 (0000ms, 69848ms total)
T0300 18416:752 JLINK_WriteReg(R11, 0x00000000)  returns 0x00 (0000ms, 69848ms total)
T0300 18416:752 JLINK_WriteReg(R12, 0x00000000)  returns 0x00 (0000ms, 69848ms total)
T0300 18416:752 JLINK_WriteReg(R13 (SP), 0x20001000)  returns 0x00 (0000ms, 69848ms total)
T0300 18416:752 JLINK_WriteReg(R14, 0x20000001)  returns 0x00 (0000ms, 69848ms total)
T0300 18416:752 JLINK_WriteReg(R15 (PC), 0x200000F4)  returns 0x00 (0000ms, 69848ms total)
T0300 18416:752 JLINK_WriteReg(XPSR, 0x01000000)  returns 0x00 (0000ms, 69848ms total)
T0300 18416:752 JLINK_WriteReg(MSP, 0x20001000)  returns 0x00 (0000ms, 69848ms total)
T0300 18416:752 JLINK_WriteReg(PSP, 0x20001000)  returns 0x00 (0000ms, 69848ms total)
T0300 18416:752 JLINK_WriteReg(CFBP, 0x00000000)  returns 0x00 (0000ms, 69848ms total)
T0300 18416:752 JLINK_SetBPEx(Addr = 0x20000000, Type = 0xFFFFFFF2)  returns 0x0000000B (0000ms, 69848ms total)
T0300 18416:752 JLINK_Go() -- CPU_ReadMem(4 bytes @ 0xE0001000) (0005ms, 69853ms total)
T0300 18416:757 JLINK_IsHalted()  returns FALSE (0002ms, 69855ms total)
T0300 18416:760 JLINK_IsHalted()  returns FALSE (0001ms, 69854ms total)
T0300 18416:764 JLINK_IsHalted()  returns FALSE (0001ms, 69854ms total)
T0300 18416:766 JLINK_IsHalted()  returns FALSE (0000ms, 69853ms total)
T0300 18416:767 JLINK_IsHalted()  returns FALSE (0000ms, 69853ms total)
T0300 18416:768 JLINK_IsHalted()  returns FALSE (0000ms, 69853ms total)
T0300 18416:769 JLINK_IsHalted()  returns FALSE (0000ms, 69853ms total)
T0300 18416:770 JLINK_IsHalted()  returns FALSE (0000ms, 69853ms total)
T0300 18416:775 JLINK_IsHalted()  returns FALSE (0001ms, 69854ms total)
T0300 18416:777 JLINK_IsHalted()  returns FALSE (0001ms, 69854ms total)
T0300 18416:779 JLINK_IsHalted()  returns FALSE (0001ms, 69854ms total)
T0300 18416:781 JLINK_IsHalted()  returns FALSE (0001ms, 69854ms total)
T0300 18416:784 JLINK_IsHalted()  returns FALSE (0001ms, 69854ms total)
T0300 18416:786 JLINK_IsHalted()  returns FALSE (0001ms, 69854ms total)
T0300 18416:788 JLINK_IsHalted() -- CPU_ReadMem(2 bytes @ 0x20000000)  returns TRUE (0005ms, 69858ms total)
T0300 18416:793 JLINK_ReadReg(R15 (PC))  returns 0x20000000 (0000ms, 69853ms total)
T0300 18416:793 JLINK_ClrBPEx(BPHandle = 0x0000000B)  returns 0x00 (0000ms, 69853ms total)
T0300 18416:793 JLINK_ReadReg(R0)  returns 0x00000000 (0000ms, 69853ms total)
T0300 18416:793 JLINK_WriteMem(0x20000164, 0x029C Bytes, ...) - Data: 13 B1 0C B1 01 20 00 E0 00 20 70 BD 10 B5 00 22 ... -- CPU_WriteMem(668 bytes @ 0x20000164)  returns 0x29C (0009ms, 69862ms total)
T0300 18416:802 JLINK_WriteMem(0x20000400, 0x0164 Bytes, ...) - Data: A8 42 08 D0 74 4D A8 42 05 D0 74 4D A8 42 02 D0 ... -- CPU_WriteMem(356 bytes @ 0x20000400)  returns 0x164 (0005ms, 69867ms total)
T0300 18416:807 JLINK_WriteReg(R0, 0x08001C00)  returns 0x00 (0000ms, 69867ms total)
T0300 18416:807 JLINK_WriteReg(R1, 0x00000400)  returns 0x00 (0000ms, 69867ms total)
T0300 18416:807 JLINK_WriteReg(R2, 0x20000164)  returns 0x00 (0000ms, 69867ms total)
T0300 18416:807 JLINK_WriteReg(R3, 0x00000000)  returns 0x00 (0000ms, 69867ms total)
T0300 18416:807 JLINK_WriteReg(R4, 0x00000000)  returns 0x00 (0000ms, 69867ms total)
T0300 18416:807 JLINK_WriteReg(R5, 0x00000000)  returns 0x00 (0000ms, 69867ms total)
T0300 18416:807 JLINK_WriteReg(R6, 0x00000000)  returns 0x00 (0000ms, 69867ms total)
T0300 18416:807 JLINK_WriteReg(R7, 0x00000000)  returns 0x00 (0000ms, 69867ms total)
T0300 18416:807 JLINK_WriteReg(R8, 0x00000000)  returns 0x00 (0000ms, 69867ms total)
T0300 18416:807 JLINK_WriteReg(R9, 0x20000160)  returns 0x00 (0000ms, 69867ms total)
T0300 18416:807 JLINK_WriteReg(R10, 0x00000000)  returns 0x00 (0000ms, 69867ms total)
T0300 18416:807 JLINK_WriteReg(R11, 0x00000000)  returns 0x00 (0000ms, 69867ms total)
T0300 18416:807 JLINK_WriteReg(R12, 0x00000000)  returns 0x00 (0000ms, 69867ms total)
T0300 18416:807 JLINK_WriteReg(R13 (SP), 0x20001000)  returns 0x00 (0000ms, 69867ms total)
T0300 18416:807 JLINK_WriteReg(R14, 0x20000001)  returns 0x00 (0000ms, 69867ms total)
T0300 18416:807 JLINK_WriteReg(R15 (PC), 0x200000F4)  returns 0x00 (0000ms, 69867ms total)
T0300 18416:807 JLINK_WriteReg(XPSR, 0x01000000)  returns 0x00 (0000ms, 69867ms total)
T0300 18416:807 JLINK_WriteReg(MSP, 0x20001000)  returns 0x00 (0000ms, 69867ms total)
T0300 18416:807 JLINK_WriteReg(PSP, 0x20001000)  returns 0x00 (0000ms, 69867ms total)
T0300 18416:807 JLINK_WriteReg(CFBP, 0x00000000)  returns 0x00 (0000ms, 69867ms total)
T0300 18416:807 JLINK_SetBPEx(Addr = 0x20000000, Type = 0xFFFFFFF2)  returns 0x0000000C (0000ms, 69867ms total)
T0300 18416:807 JLINK_Go() -- CPU_ReadMem(4 bytes @ 0xE0001000) (0004ms, 69871ms total)
T0300 18416:812 JLINK_IsHalted()  returns FALSE (0000ms, 69872ms total)
T0300 18416:821 JLINK_IsHalted()  returns FALSE (0001ms, 69873ms total)
T0300 18416:823 JLINK_IsHalted()  returns FALSE (0001ms, 69873ms total)
T0300 18416:825 JLINK_IsHalted()  returns FALSE (0001ms, 69873ms total)
T0300 18416:827 JLINK_IsHalted()  returns FALSE (0001ms, 69873ms total)
T0300 18416:829 JLINK_IsHalted()  returns FALSE (0001ms, 69873ms total)
T0300 18416:831 JLINK_IsHalted()  returns FALSE (0000ms, 69872ms total)
T0300 18416:832 JLINK_IsHalted()  returns FALSE (0000ms, 69872ms total)
T0300 18416:833 JLINK_IsHalted()  returns FALSE (0000ms, 69872ms total)
T0300 18416:834 JLINK_IsHalted()  returns FALSE (0000ms, 69872ms total)
T0300 18416:835 JLINK_IsHalted()  returns FALSE (0000ms, 69872ms total)
T0300 18416:836 JLINK_IsHalted()  returns FALSE (0000ms, 69872ms total)
T0300 18416:837 JLINK_IsHalted()  returns FALSE (0000ms, 69872ms total)
T0300 18416:838 JLINK_IsHalted()  returns FALSE (0000ms, 69872ms total)
T0300 18416:839 JLINK_IsHalted()  returns FALSE (0000ms, 69872ms total)
T0300 18416:840 JLINK_IsHalted()  returns FALSE (0000ms, 69872ms total)
T0300 18416:841 JLINK_IsHalted()  returns FALSE (0000ms, 69872ms total)
T0300 18416:842 JLINK_IsHalted() -- CPU_ReadMem(2 bytes @ 0x20000000)  returns TRUE (0004ms, 69876ms total)
T0300 18416:846 JLINK_ReadReg(R15 (PC))  returns 0x20000000 (0000ms, 69872ms total)
T0300 18416:846 JLINK_ClrBPEx(BPHandle = 0x0000000C)  returns 0x00 (0000ms, 69872ms total)
T0300 18416:846 JLINK_ReadReg(R0)  returns 0x00000000 (0000ms, 69872ms total)
T0300 18416:847 JLINK_WriteMem(0x20000164, 0x029C Bytes, ...) - Data: 2B 43 CD 89 06 EA 05 15 2B 43 83 80 84 83 CD 88 ... -- CPU_WriteMem(668 bytes @ 0x20000164)  returns 0x29C (0009ms, 69881ms total)
T0300 18416:856 JLINK_WriteMem(0x20000400, 0x0164 Bytes, ...) - Data: 0A 43 02 83 70 47 F0 B5 0C 46 15 46 00 22 00 21 ... -- CPU_WriteMem(356 bytes @ 0x20000400)  returns 0x164 (0004ms, 69885ms total)
T0300 18416:860 JLINK_WriteReg(R0, 0x08002000)  returns 0x00 (0000ms, 69885ms total)
T0300 18416:860 JLINK_WriteReg(R1, 0x00000400)  returns 0x00 (0000ms, 69885ms total)
T0300 18416:860 JLINK_WriteReg(R2, 0x20000164)  returns 0x00 (0000ms, 69885ms total)
T0300 18416:860 JLINK_WriteReg(R3, 0x00000000)  returns 0x00 (0000ms, 69885ms total)
